
**** 10/22/23 16:20:54 ********* PSpice 9.2 (Mar 2000) ******** ID# 1 ********

 * C:\Users\zelle\Documents\Schematic2.sch


 ****     CIRCUIT DESCRIPTION


******************************************************************************




* Schematics Version 9.2
* Sun Oct 22 16:20:54 2023



** Analysis setup **
.ac LIN 2 1300  1301


* From [PSPICE NETLIST] section of C:\Program Files\Orcad\PSpice\PSpice.ini:
.lib "nom.lib"

.INC "Schematic2.net"



**** INCLUDING Schematic2.net ****
* Schematics Netlist *



R_R3         0 3  229  
         
.PRINT         TRAN V([1]) 
.PRINT        DC V([1]) 
.PRINT        AC 
+ VM([1]) 
+ VP([1]) 
+ VR([1]) 
+ VI([1])  
R_R5         2 1  212  
         
.PRINT         TRAN V([2]) 
.PRINT        DC V([2]) 
.PRINT        AC 
+ VM([2]) 
+ VP([2]) 
+ VR([2]) 
+ VI([2])  
R_R6         2 1  212  
R_RH         3 2  235  
R_R2         0 2  250  
C_C         3 1  8.3uF  
         
.PRINT         TRAN V([3]) 
.PRINT        DC V([3]) 
.PRINT        AC 
+ VM([3]) 
+ VP([3]) 
+ VR([3]) 
+ VI([3])  
L_L         0 $N_0001  60.4mH  
R_R1         $N_0001 $N_0002  179  
I_I1         2 0 DC 140mA AC 197.99mA 0
V_V1         1 $N_0002 DC 10.3V AC 14.57V 0

**** RESUMING Schematic2.cir ****
.PROBE V(*) I(*) W(*) D(*) NOISE(*) 


.END

**** 10/22/23 16:20:54 ********* PSpice 9.2 (Mar 2000) ******** ID# 1 ********

 * C:\Users\zelle\Documents\Schematic2.sch


 ****     SMALL SIGNAL BIAS SOLUTION       TEMPERATURE =   27.000 DEG C


******************************************************************************



 NODE   VOLTAGE     NODE   VOLTAGE     NODE   VOLTAGE     NODE   VOLTAGE


(    1)   -2.9191  (    2)  -10.7470  (    3)   -5.3041  ($N_0001)    0.0000    

($N_0002)  -13.2190                   




    VOLTAGE SOURCE CURRENTS
    NAME         CURRENT

    V_V1        -7.385E-02

    TOTAL POWER DISSIPATION   7.61E-01  WATTS


**** 10/22/23 16:20:54 ********* PSpice 9.2 (Mar 2000) ******** ID# 1 ********

 * C:\Users\zelle\Documents\Schematic2.sch


 ****     AC ANALYSIS                      TEMPERATURE =   27.000 DEG C


******************************************************************************



  FREQ        VM(1)       VP(1)       VR(1)       VI(1)       


   1.300E+03   1.789E+01  -1.586E+02  -1.665E+01  -6.538E+00
   1.301E+03   1.789E+01  -1.586E+02  -1.666E+01  -6.536E+00

**** 10/22/23 16:20:54 ********* PSpice 9.2 (Mar 2000) ******** ID# 1 ********

 * C:\Users\zelle\Documents\Schematic2.sch


 ****     AC ANALYSIS                      TEMPERATURE =   27.000 DEG C


******************************************************************************



  FREQ        VM(2)       VP(2)       VR(2)       VI(2)       


   1.300E+03   2.450E+01  -1.678E+02  -2.394E+01  -5.190E+00
   1.301E+03   2.450E+01  -1.678E+02  -2.395E+01  -5.188E+00

**** 10/22/23 16:20:54 ********* PSpice 9.2 (Mar 2000) ******** ID# 1 ********

 * C:\Users\zelle\Documents\Schematic2.sch


 ****     AC ANALYSIS                      TEMPERATURE =   27.000 DEG C


******************************************************************************



  FREQ        VM(3)       VP(3)       VR(3)       VI(3)       


   1.300E+03   1.757E+01  -1.562E+02  -1.608E+01  -7.080E+00
   1.301E+03   1.757E+01  -1.562E+02  -1.608E+01  -7.078E+00


          JOB CONCLUDED

          TOTAL JOB TIME             .02
